v2	V(n001)	V(n002)	Id(M1)
Step Information: X=0  (Run: 1/11)
0.000000000000000e+000	0.000000e+000	0.000000e+000	0.000000e+000
1.800000000000000e-003	1.800000e-003	0.000000e+000	3.527532e-013
3.600000000000000e-003	3.600000e-003	0.000000e+000	6.871777e-013
5.400000000000000e-003	5.400000e-003	0.000000e+000	1.003639e-012
7.200000000000001e-003	7.200000e-003	0.000000e+000	1.302527e-012
9.000000000000001e-003	9.000000e-003	0.000000e+000	1.584257e-012
1.080000000000000e-002	1.080000e-002	0.000000e+000	1.849271e-012
1.260000000000000e-002	1.260000e-002	0.000000e+000	2.098043e-012
1.440000000000000e-002	1.440000e-002	0.000000e+000	2.331072e-012
1.620000000000000e-002	1.620000e-002	0.000000e+000	2.548889e-012
1.800000000000000e-002	1.800000e-002	0.000000e+000	2.752057e-012
1.980000000000000e-002	1.980000e-002	0.000000e+000	2.941163e-012
2.160000000000000e-002	2.160000e-002	0.000000e+000	3.116824e-012
2.340000000000000e-002	2.340000e-002	0.000000e+000	3.279677e-012
2.520000000000000e-002	2.520000e-002	0.000000e+000	3.430383e-012
2.700000000000000e-002	2.700000e-002	0.000000e+000	3.569613e-012
2.880000000000000e-002	2.880000e-002	0.000000e+000	3.698052e-012
3.060000000000000e-002	3.060000e-002	0.000000e+000	3.816386e-012
3.240000000000000e-002	3.240000e-002	0.000000e+000	3.925298e-012
3.420000000000000e-002	3.420000e-002	0.000000e+000	4.025465e-012
3.600000000000000e-002	3.600000e-002	0.000000e+000	4.117546e-012
3.780000000000001e-002	3.780000e-002	0.000000e+000	4.202181e-012
3.960000000000001e-002	3.960000e-002	0.000000e+000	4.279984e-012
4.140000000000001e-002	4.140000e-002	0.000000e+000	4.351541e-012
4.320000000000002e-002	4.320000e-002	0.000000e+000	4.417404e-012
4.500000000000002e-002	4.500000e-002	0.000000e+000	4.478089e-012
4.680000000000002e-002	4.680000e-002	0.000000e+000	4.534080e-012
4.860000000000003e-002	4.860000e-002	0.000000e+000	4.585821e-012
5.040000000000003e-002	5.040000e-002	0.000000e+000	4.633722e-012
5.220000000000003e-002	5.220000e-002	0.000000e+000	4.678157e-012
5.400000000000003e-002	5.400000e-002	0.000000e+000	4.719467e-012
5.580000000000004e-002	5.580000e-002	0.000000e+000	4.757962e-012
5.760000000000004e-002	5.760000e-002	0.000000e+000	4.793920e-012
5.940000000000004e-002	5.940000e-002	0.000000e+000	4.827592e-012
6.120000000000005e-002	6.120000e-002	0.000000e+000	4.859206e-012
6.300000000000004e-002	6.300000e-002	0.000000e+000	4.888965e-012
6.480000000000004e-002	6.480000e-002	0.000000e+000	4.917050e-012
6.660000000000003e-002	6.660000e-002	0.000000e+000	4.943625e-012
6.840000000000003e-002	6.840000e-002	0.000000e+000	4.968835e-012
7.020000000000003e-002	7.020000e-002	0.000000e+000	4.992811e-012
7.200000000000002e-002	7.200000e-002	0.000000e+000	5.015670e-012
7.380000000000002e-002	7.380000e-002	0.000000e+000	5.037516e-012
7.560000000000001e-002	7.560000e-002	0.000000e+000	5.058442e-012
7.740000000000001e-002	7.740000e-002	0.000000e+000	5.078532e-012
7.920000000000001e-002	7.920000e-002	0.000000e+000	5.097861e-012
8.100000000000000e-002	8.100000e-002	0.000000e+000	5.116497e-012
8.280000000000000e-002	8.280000e-002	0.000000e+000	5.134499e-012
8.460000000000000e-002	8.460000e-002	0.000000e+000	5.151923e-012
8.639999999999999e-002	8.640000e-002	0.000000e+000	5.168816e-012
8.819999999999999e-002	8.820000e-002	0.000000e+000	5.185223e-012
8.999999999999998e-002	9.000000e-002	0.000000e+000	5.201184e-012
9.179999999999998e-002	9.180000e-002	0.000000e+000	5.216734e-012
9.359999999999998e-002	9.360000e-002	0.000000e+000	5.231906e-012
9.539999999999997e-002	9.540000e-002	0.000000e+000	5.246729e-012
9.719999999999997e-002	9.720000e-002	0.000000e+000	5.261230e-012
9.899999999999996e-002	9.900000e-002	0.000000e+000	5.275433e-012
1.008000000000000e-001	1.008000e-001	0.000000e+000	5.289360e-012
1.026000000000000e-001	1.026000e-001	0.000000e+000	5.303031e-012
1.044000000000000e-001	1.044000e-001	0.000000e+000	5.316464e-012
1.062000000000000e-001	1.062000e-001	0.000000e+000	5.329676e-012
1.079999999999999e-001	1.080000e-001	0.000000e+000	5.342682e-012
1.097999999999999e-001	1.098000e-001	0.000000e+000	5.355496e-012
1.115999999999999e-001	1.116000e-001	0.000000e+000	5.368131e-012
1.133999999999999e-001	1.134000e-001	0.000000e+000	5.380598e-012
1.151999999999999e-001	1.152000e-001	0.000000e+000	5.392909e-012
1.169999999999999e-001	1.170000e-001	0.000000e+000	5.405074e-012
1.187999999999999e-001	1.188000e-001	0.000000e+000	5.417101e-012
1.205999999999999e-001	1.206000e-001	0.000000e+000	5.428999e-012
1.223999999999999e-001	1.224000e-001	0.000000e+000	5.440775e-012
1.241999999999999e-001	1.242000e-001	0.000000e+000	5.452438e-012
1.259999999999999e-001	1.260000e-001	0.000000e+000	5.463993e-012
1.277999999999999e-001	1.278000e-001	0.000000e+000	5.475448e-012
1.295999999999999e-001	1.296000e-001	0.000000e+000	5.486806e-012
1.313999999999999e-001	1.314000e-001	0.000000e+000	5.498075e-012
1.331999999999999e-001	1.332000e-001	0.000000e+000	5.509259e-012
1.349999999999999e-001	1.350000e-001	0.000000e+000	5.520362e-012
1.367999999999999e-001	1.368000e-001	0.000000e+000	5.531390e-012
1.385999999999999e-001	1.386000e-001	0.000000e+000	5.542345e-012
1.403999999999999e-001	1.404000e-001	0.000000e+000	5.553231e-012
1.421999999999999e-001	1.422000e-001	0.000000e+000	5.564053e-012
1.439999999999999e-001	1.440000e-001	0.000000e+000	5.574814e-012
1.457999999999999e-001	1.458000e-001	0.000000e+000	5.585515e-012
1.475999999999999e-001	1.476000e-001	0.000000e+000	5.596162e-012
1.493999999999999e-001	1.494000e-001	0.000000e+000	5.606755e-012
1.511999999999999e-001	1.512000e-001	0.000000e+000	5.617298e-012
1.529999999999999e-001	1.530000e-001	0.000000e+000	5.627793e-012
1.547999999999999e-001	1.548000e-001	0.000000e+000	5.638242e-012
1.565999999999999e-001	1.566000e-001	0.000000e+000	5.648648e-012
1.583999999999999e-001	1.584000e-001	0.000000e+000	5.659012e-012
1.601999999999998e-001	1.602000e-001	0.000000e+000	5.669337e-012
1.619999999999998e-001	1.620000e-001	0.000000e+000	5.679623e-012
1.637999999999998e-001	1.638000e-001	0.000000e+000	5.689873e-012
1.655999999999998e-001	1.656000e-001	0.000000e+000	5.700088e-012
1.673999999999998e-001	1.674000e-001	0.000000e+000	5.710271e-012
1.691999999999998e-001	1.692000e-001	0.000000e+000	5.720421e-012
1.709999999999998e-001	1.710000e-001	0.000000e+000	5.730541e-012
1.727999999999998e-001	1.728000e-001	0.000000e+000	5.740632e-012
1.745999999999998e-001	1.746000e-001	0.000000e+000	5.750695e-012
1.763999999999998e-001	1.764000e-001	0.000000e+000	5.760730e-012
1.781999999999998e-001	1.782000e-001	0.000000e+000	5.770741e-012
1.799999999999998e-001	1.800000e-001	0.000000e+000	5.780726e-012
1.817999999999998e-001	1.818000e-001	0.000000e+000	5.790688e-012
1.835999999999998e-001	1.836000e-001	0.000000e+000	5.800626e-012
1.853999999999998e-001	1.854000e-001	0.000000e+000	5.810543e-012
1.871999999999998e-001	1.872000e-001	0.000000e+000	5.820439e-012
1.889999999999998e-001	1.890000e-001	0.000000e+000	5.830315e-012
1.907999999999998e-001	1.908000e-001	0.000000e+000	5.840171e-012
1.925999999999998e-001	1.926000e-001	0.000000e+000	5.850008e-012
1.943999999999998e-001	1.944000e-001	0.000000e+000	5.859827e-012
1.961999999999998e-001	1.962000e-001	0.000000e+000	5.869629e-012
1.979999999999998e-001	1.980000e-001	0.000000e+000	5.879414e-012
1.997999999999998e-001	1.998000e-001	0.000000e+000	5.889183e-012
2.015999999999998e-001	2.016000e-001	0.000000e+000	5.898936e-012
2.033999999999998e-001	2.034000e-001	0.000000e+000	5.908674e-012
2.051999999999997e-001	2.052000e-001	0.000000e+000	5.918398e-012
2.069999999999997e-001	2.070000e-001	0.000000e+000	5.928107e-012
2.087999999999997e-001	2.088000e-001	0.000000e+000	5.937803e-012
2.105999999999997e-001	2.106000e-001	0.000000e+000	5.947486e-012
2.123999999999997e-001	2.124000e-001	0.000000e+000	5.957157e-012
2.141999999999997e-001	2.142000e-001	0.000000e+000	5.966815e-012
2.159999999999997e-001	2.160000e-001	0.000000e+000	5.976462e-012
2.177999999999997e-001	2.178000e-001	0.000000e+000	5.986097e-012
2.195999999999997e-001	2.196000e-001	0.000000e+000	5.995721e-012
2.213999999999997e-001	2.214000e-001	0.000000e+000	6.005335e-012
2.231999999999997e-001	2.232000e-001	0.000000e+000	6.014938e-012
2.249999999999997e-001	2.250000e-001	0.000000e+000	6.024532e-012
2.267999999999997e-001	2.268000e-001	0.000000e+000	6.034115e-012
2.285999999999997e-001	2.286000e-001	0.000000e+000	6.043690e-012
2.303999999999997e-001	2.304000e-001	0.000000e+000	6.053256e-012
2.321999999999997e-001	2.322000e-001	0.000000e+000	6.062812e-012
2.339999999999997e-001	2.340000e-001	0.000000e+000	6.072361e-012
2.357999999999997e-001	2.358000e-001	0.000000e+000	6.081901e-012
2.375999999999997e-001	2.376000e-001	0.000000e+000	6.091434e-012
2.393999999999997e-001	2.394000e-001	0.000000e+000	6.100958e-012
2.411999999999997e-001	2.412000e-001	0.000000e+000	6.110476e-012
2.429999999999997e-001	2.430000e-001	0.000000e+000	6.119986e-012
2.447999999999997e-001	2.448000e-001	0.000000e+000	6.129490e-012
2.465999999999997e-001	2.466000e-001	0.000000e+000	6.138986e-012
2.483999999999997e-001	2.484000e-001	0.000000e+000	6.148476e-012
2.501999999999996e-001	2.502000e-001	0.000000e+000	6.157960e-012
2.519999999999997e-001	2.520000e-001	0.000000e+000	6.167438e-012
2.537999999999997e-001	2.538000e-001	0.000000e+000	6.176910e-012
2.555999999999997e-001	2.556000e-001	0.000000e+000	6.186376e-012
2.573999999999997e-001	2.574000e-001	0.000000e+000	6.195837e-012
2.591999999999998e-001	2.592000e-001	0.000000e+000	6.205292e-012
2.609999999999998e-001	2.610000e-001	0.000000e+000	6.214742e-012
2.627999999999998e-001	2.628000e-001	0.000000e+000	6.224187e-012
2.645999999999998e-001	2.646000e-001	0.000000e+000	6.233627e-012
2.663999999999999e-001	2.664000e-001	0.000000e+000	6.243062e-012
2.681999999999999e-001	2.682000e-001	0.000000e+000	6.252493e-012
2.699999999999999e-001	2.700000e-001	0.000000e+000	6.261919e-012
2.717999999999999e-001	2.718000e-001	0.000000e+000	6.271341e-012
2.736000000000000e-001	2.736000e-001	0.000000e+000	6.280758e-012
2.754000000000000e-001	2.754000e-001	0.000000e+000	6.290172e-012
2.772000000000000e-001	2.772000e-001	0.000000e+000	6.299582e-012
2.790000000000000e-001	2.790000e-001	0.000000e+000	6.308988e-012
2.808000000000001e-001	2.808000e-001	0.000000e+000	6.318390e-012
2.826000000000001e-001	2.826000e-001	0.000000e+000	6.327789e-012
2.844000000000001e-001	2.844000e-001	0.000000e+000	6.337184e-012
2.862000000000001e-001	2.862000e-001	0.000000e+000	6.346576e-012
2.880000000000001e-001	2.880000e-001	0.000000e+000	6.355964e-012
2.898000000000002e-001	2.898000e-001	0.000000e+000	6.365349e-012
2.916000000000002e-001	2.916000e-001	0.000000e+000	6.374731e-012
2.934000000000002e-001	2.934000e-001	0.000000e+000	6.384111e-012
2.952000000000002e-001	2.952000e-001	0.000000e+000	6.393487e-012
2.970000000000003e-001	2.970000e-001	0.000000e+000	6.402861e-012
2.988000000000003e-001	2.988000e-001	0.000000e+000	6.412232e-012
3.006000000000003e-001	3.006000e-001	0.000000e+000	6.421600e-012
3.024000000000003e-001	3.024000e-001	0.000000e+000	6.430966e-012
3.042000000000004e-001	3.042000e-001	0.000000e+000	6.440330e-012
3.060000000000004e-001	3.060000e-001	0.000000e+000	6.449691e-012
3.078000000000004e-001	3.078000e-001	0.000000e+000	6.459049e-012
3.096000000000004e-001	3.096000e-001	0.000000e+000	6.468406e-012
3.114000000000005e-001	3.114000e-001	0.000000e+000	6.477760e-012
3.132000000000005e-001	3.132000e-001	0.000000e+000	6.487112e-012
3.150000000000005e-001	3.150000e-001	0.000000e+000	6.496463e-012
3.168000000000005e-001	3.168000e-001	0.000000e+000	6.505812e-012
3.186000000000006e-001	3.186000e-001	0.000000e+000	6.515158e-012
3.204000000000006e-001	3.204000e-001	0.000000e+000	6.524503e-012
3.222000000000006e-001	3.222000e-001	0.000000e+000	6.533846e-012
3.240000000000006e-001	3.240000e-001	0.000000e+000	6.543187e-012
3.258000000000006e-001	3.258000e-001	0.000000e+000	6.552527e-012
3.276000000000007e-001	3.276000e-001	0.000000e+000	6.561865e-012
3.294000000000007e-001	3.294000e-001	0.000000e+000	6.571201e-012
3.312000000000007e-001	3.312000e-001	0.000000e+000	6.580536e-012
3.330000000000007e-001	3.330000e-001	0.000000e+000	6.589870e-012
3.348000000000008e-001	3.348000e-001	0.000000e+000	6.599203e-012
3.366000000000008e-001	3.366000e-001	0.000000e+000	6.608534e-012
3.384000000000008e-001	3.384000e-001	0.000000e+000	6.617864e-012
3.402000000000008e-001	3.402000e-001	0.000000e+000	6.627193e-012
3.420000000000009e-001	3.420000e-001	0.000000e+000	6.636520e-012
3.438000000000009e-001	3.438000e-001	0.000000e+000	6.645847e-012
3.456000000000009e-001	3.456000e-001	0.000000e+000	6.655172e-012
3.474000000000009e-001	3.474000e-001	0.000000e+000	6.664496e-012
3.492000000000010e-001	3.492000e-001	0.000000e+000	6.673820e-012
3.510000000000010e-001	3.510000e-001	0.000000e+000	6.683142e-012
3.528000000000010e-001	3.528000e-001	0.000000e+000	6.692464e-012
3.546000000000010e-001	3.546000e-001	0.000000e+000	6.701785e-012
3.564000000000011e-001	3.564000e-001	0.000000e+000	6.711105e-012
3.582000000000011e-001	3.582000e-001	0.000000e+000	6.720424e-012
3.600000000000011e-001	3.600000e-001	0.000000e+000	6.729743e-012
3.618000000000011e-001	3.618000e-001	0.000000e+000	6.739060e-012
3.636000000000011e-001	3.636000e-001	0.000000e+000	6.748377e-012
3.654000000000012e-001	3.654000e-001	0.000000e+000	6.757694e-012
3.672000000000012e-001	3.672000e-001	0.000000e+000	6.767010e-012
3.690000000000012e-001	3.690000e-001	0.000000e+000	6.776326e-012
3.708000000000012e-001	3.708000e-001	0.000000e+000	6.785641e-012
3.726000000000013e-001	3.726000e-001	0.000000e+000	6.794955e-012
3.744000000000013e-001	3.744000e-001	0.000000e+000	6.804269e-012
3.762000000000013e-001	3.762000e-001	0.000000e+000	6.813582e-012
3.780000000000013e-001	3.780000e-001	0.000000e+000	6.822896e-012
3.798000000000014e-001	3.798000e-001	0.000000e+000	6.832208e-012
3.816000000000014e-001	3.816000e-001	0.000000e+000	6.841521e-012
3.834000000000014e-001	3.834000e-001	0.000000e+000	6.850833e-012
3.852000000000014e-001	3.852000e-001	0.000000e+000	6.860145e-012
3.870000000000015e-001	3.870000e-001	0.000000e+000	6.869457e-012
3.888000000000015e-001	3.888000e-001	0.000000e+000	6.878768e-012
3.906000000000015e-001	3.906000e-001	0.000000e+000	6.888080e-012
3.924000000000015e-001	3.924000e-001	0.000000e+000	6.897391e-012
3.942000000000016e-001	3.942000e-001	0.000000e+000	6.906702e-012
3.960000000000016e-001	3.960000e-001	0.000000e+000	6.916012e-012
3.978000000000016e-001	3.978000e-001	0.000000e+000	6.925323e-012
3.996000000000016e-001	3.996000e-001	0.000000e+000	6.934634e-012
4.014000000000016e-001	4.014000e-001	0.000000e+000	6.943945e-012
4.032000000000017e-001	4.032000e-001	0.000000e+000	6.953255e-012
4.050000000000017e-001	4.050000e-001	0.000000e+000	6.962566e-012
4.068000000000017e-001	4.068000e-001	0.000000e+000	6.971877e-012
4.086000000000017e-001	4.086000e-001	0.000000e+000	6.981187e-012
4.104000000000018e-001	4.104000e-001	0.000000e+000	6.990498e-012
4.122000000000018e-001	4.122000e-001	0.000000e+000	6.999809e-012
4.140000000000018e-001	4.140000e-001	0.000000e+000	7.009120e-012
4.158000000000018e-001	4.158000e-001	0.000000e+000	7.018431e-012
4.176000000000019e-001	4.176000e-001	0.000000e+000	7.027743e-012
4.194000000000019e-001	4.194000e-001	0.000000e+000	7.037054e-012
4.212000000000019e-001	4.212000e-001	0.000000e+000	7.046366e-012
4.230000000000019e-001	4.230000e-001	0.000000e+000	7.055677e-012
4.248000000000020e-001	4.248000e-001	0.000000e+000	7.064989e-012
4.266000000000020e-001	4.266000e-001	0.000000e+000	7.074302e-012
4.284000000000020e-001	4.284000e-001	0.000000e+000	7.083615e-012
4.302000000000020e-001	4.302000e-001	0.000000e+000	7.092927e-012
4.320000000000021e-001	4.320000e-001	0.000000e+000	7.102240e-012
4.338000000000021e-001	4.338000e-001	0.000000e+000	7.111554e-012
4.356000000000021e-001	4.356000e-001	0.000000e+000	7.120868e-012
4.374000000000021e-001	4.374000e-001	0.000000e+000	7.130182e-012
4.392000000000021e-001	4.392000e-001	0.000000e+000	7.139496e-012
4.410000000000022e-001	4.410000e-001	0.000000e+000	7.148811e-012
4.428000000000022e-001	4.428000e-001	0.000000e+000	7.158126e-012
4.446000000000022e-001	4.446000e-001	0.000000e+000	7.167442e-012
4.464000000000022e-001	4.464000e-001	0.000000e+000	7.176758e-012
4.482000000000023e-001	4.482000e-001	0.000000e+000	7.186075e-012
4.500000000000023e-001	4.500000e-001	0.000000e+000	7.195391e-012
4.518000000000023e-001	4.518000e-001	0.000000e+000	7.204709e-012
4.536000000000023e-001	4.536000e-001	0.000000e+000	7.214027e-012
4.554000000000024e-001	4.554000e-001	0.000000e+000	7.223345e-012
4.572000000000024e-001	4.572000e-001	0.000000e+000	7.232664e-012
4.590000000000024e-001	4.590000e-001	0.000000e+000	7.241983e-012
4.608000000000024e-001	4.608000e-001	0.000000e+000	7.251304e-012
4.626000000000025e-001	4.626000e-001	0.000000e+000	7.260624e-012
4.644000000000025e-001	4.644000e-001	0.000000e+000	7.269945e-012
4.662000000000025e-001	4.662000e-001	0.000000e+000	7.279267e-012
4.680000000000025e-001	4.680000e-001	0.000000e+000	7.288589e-012
4.698000000000026e-001	4.698000e-001	0.000000e+000	7.297912e-012
4.716000000000026e-001	4.716000e-001	0.000000e+000	7.307236e-012
4.734000000000026e-001	4.734000e-001	0.000000e+000	7.316560e-012
4.752000000000026e-001	4.752000e-001	0.000000e+000	7.325884e-012
4.770000000000026e-001	4.770000e-001	0.000000e+000	7.335209e-012
4.788000000000027e-001	4.788000e-001	0.000000e+000	7.344536e-012
4.806000000000027e-001	4.806000e-001	0.000000e+000	7.353861e-012
4.824000000000027e-001	4.824000e-001	0.000000e+000	7.363189e-012
4.842000000000027e-001	4.842000e-001	0.000000e+000	7.372517e-012
4.860000000000028e-001	4.860000e-001	0.000000e+000	7.381846e-012
4.878000000000028e-001	4.878000e-001	0.000000e+000	7.391175e-012
4.896000000000028e-001	4.896000e-001	0.000000e+000	7.400505e-012
4.914000000000028e-001	4.914000e-001	0.000000e+000	7.409836e-012
4.932000000000029e-001	4.932000e-001	0.000000e+000	7.419168e-012
4.950000000000029e-001	4.950000e-001	0.000000e+000	7.428500e-012
4.968000000000029e-001	4.968000e-001	0.000000e+000	7.437832e-012
4.986000000000029e-001	4.986000e-001	0.000000e+000	7.447166e-012
5.004000000000030e-001	5.004000e-001	0.000000e+000	7.456501e-012
5.022000000000030e-001	5.022000e-001	0.000000e+000	7.465836e-012
5.040000000000030e-001	5.040000e-001	0.000000e+000	7.475172e-012
5.058000000000030e-001	5.058000e-001	0.000000e+000	7.484510e-012
5.076000000000031e-001	5.076000e-001	0.000000e+000	7.493847e-012
5.094000000000031e-001	5.094000e-001	0.000000e+000	7.503186e-012
5.112000000000031e-001	5.112000e-001	0.000000e+000	7.512525e-012
5.130000000000031e-001	5.130000e-001	0.000000e+000	7.521865e-012
5.148000000000031e-001	5.148000e-001	0.000000e+000	7.531206e-012
5.166000000000032e-001	5.166000e-001	0.000000e+000	7.540548e-012
5.184000000000032e-001	5.184000e-001	0.000000e+000	7.549890e-012
5.202000000000032e-001	5.202000e-001	0.000000e+000	7.559234e-012
5.220000000000032e-001	5.220000e-001	0.000000e+000	7.568579e-012
5.238000000000033e-001	5.238000e-001	0.000000e+000	7.577924e-012
5.256000000000033e-001	5.256000e-001	0.000000e+000	7.587270e-012
5.274000000000033e-001	5.274000e-001	0.000000e+000	7.596617e-012
5.292000000000033e-001	5.292000e-001	0.000000e+000	7.605965e-012
5.310000000000034e-001	5.310000e-001	0.000000e+000	7.615315e-012
5.328000000000034e-001	5.328000e-001	0.000000e+000	7.624664e-012
5.346000000000034e-001	5.346000e-001	0.000000e+000	7.634015e-012
5.364000000000034e-001	5.364000e-001	0.000000e+000	7.643366e-012
5.382000000000035e-001	5.382000e-001	0.000000e+000	7.652719e-012
5.400000000000035e-001	5.400000e-001	0.000000e+000	7.662072e-012
5.418000000000035e-001	5.418000e-001	0.000000e+000	7.671427e-012
